Freq.	-V(out)/I(V1)
1.00000000000000e+003	(8.46914248872600e+001dB,-7.12563442389806e+001°)
1.02329299228075e+003	(8.45142139255459e+001dB,-7.08588734068255e+001°)
1.04712854805090e+003	(8.43379196158474e+001dB,-7.04545507609890e+001°)
1.07151930523761e+003	(8.41625730436284e+001dB,-7.00433512221612e+001°)
1.09647819614319e+003	(8.39882059175017e+001dB,-6.96252554396137e+001°)
1.12201845430196e+003	(8.38148505487493e+001dB,-6.92002501175394e+001°)
1.14815362149688e+003	(8.36425398277481e+001dB,-6.87683283449180e+001°)
1.17489755493953e+003	(8.34713071970438e+001dB,-6.83294899291534e+001°)
1.20226443461741e+003	(8.33011866209954e+001dB,-6.78837417308927e+001°)
1.23026877081238e+003	(8.31322125517449e+001dB,-6.74310980000733e+001°)
1.25892541179417e+003	(8.29644198914373e+001dB,-6.69715807103638e+001°)
1.28824955169313e+003	(8.27978439504952e+001dB,-6.65052198912409e+001°)
1.31825673855641e+003	(8.26325204018079e+001dB,-6.60320539558815e+001°)
1.34896288259165e+003	(8.24684852307630e+001dB,-6.55521300222609e+001°)
1.38038426460288e+003	(8.23057746809810e+001dB,-6.50655042259059e+001°)
1.41253754462275e+003	(8.21444251956542e+001dB,-6.45722420222044e+001°)
1.44543977074593e+003	(8.19844733545156e+001dB,-6.40724184747741e+001°)
1.47910838816821e+003	(8.18259558063114e+001dB,-6.35661185286590e+001°)
1.51356124843621e+003	(8.16689091968465e+001dB,-6.30534372647807e+001°)
1.54881661891248e+003	(8.15133700926391e+001dB,-6.25344801328584e+001°)
1.58489319246111e+003	(8.13593749002377e+001dB,-6.20093631602839e+001°)
1.62181009735893e+003	(8.12069597813494e+001dB,-6.14782131336062e+001°)
1.65958690743756e+003	(8.10561605639432e+001dB,-6.09411677496819e+001°)
1.69824365246174e+003	(8.09070126495747e+001dB,-6.03983757331689e+001°)
1.73780082874937e+003	(8.07595509171346e+001dB,-5.98499969179807e+001°)
1.77827941003892e+003	(8.06138096234647e+001dB,-5.92962022886341e+001°)
1.81970085860998e+003	(8.04698223010758e+001dB,-5.87371739799514e+001°)
1.86208713666287e+003	(8.03276216535585e+001dB,-5.81731052308847e+001°)
1.90546071796325e+003	(8.01872394490698e+001dB,-5.76042002910074e+001°)
1.94984459975804e+003	(8.00487064124510e+001dB,-5.70306742771238e+001°)
1.99526231496888e+003	(7.99120521166579e+001dB,-5.64527529772919e+001°)
2.04173794466953e+003	(7.97773048740282e+001dB,-5.58706726015012e+001°)
2.08929613085404e+003	(7.96444916281597e+001dB,-5.52846794769892e+001°)
2.13796208950223e+003	(7.95136378471012e+001dB,-5.46950296873712e+001°)
2.18776162394955e+003	(7.93847674185338e+001dB,-5.41019886558308e+001°)
2.23872113856834e+003	(7.92579025478822e+001dB,-5.35058306710168e+001°)
2.29086765276777e+003	(7.91330636599617e+001dB,-5.29068383577042e+001°)
2.34422881531992e+003	(7.90102693050978e+001dB,-5.23053020922245e+001°)
2.39883291901949e+003	(7.88895360704736e+001dB,-5.17015193645986e+001°)
2.45470891568503e+003	(7.87708784973733e+001dB,-5.10957940904163e+001°)
2.51188643150958e+003	(7.86543090053268e+001dB,-5.04884358733756e+001°)
2.57039578276886e+003	(7.85398378236016e+001dB,-4.98797592238262e+001°)
2.63026799189538e+003	(7.84274729309237e+001dB,-4.92700827356509e+001°)
2.69153480392691e+003	(7.83172200039597e+001dB,-4.86597282265076e+001°)
2.75422870333816e+003	(7.82090823751355e+001dB,-4.80490198460771e+001°)
2.81838293126445e+003	(7.81030610003248e+001dB,-4.74382831572625e+001°)
2.88403150312660e+003	(7.79991544367327e+001dB,-4.68278441964165e+001°)
2.95120922666638e+003	(7.78973588314948e+001dB,-4.62180285172898e+001°)
3.01995172040201e+003	(7.77976679209779e+001dB,-4.56091602262908e+001°)
3.09029543251359e+003	(7.77000730411682e+001dB,-4.50015610138966e+001°)
3.16227766016838e+003	(7.76045631490934e+001dB,-4.43955491891601e+001°)
3.23593656929628e+003	(7.75111248551781e+001dB,-4.37914387240099e+001°)
3.31131121482591e+003	(7.74197424666911e+001dB,-4.31895383119838e+001°)
3.38844156139202e+003	(7.73303980416102e+001dB,-4.25901504500754e+001°)
3.46736850452531e+003	(7.72430714530455e+001dB,-4.19935705471312e+001°)
3.54813389233575e+003	(7.71577404635159e+001dB,-4.14000860662830e+001°)
3.63078054770101e+003	(7.70743808087660e+001dB,-4.08099757058739e+001°)
3.71535229097172e+003	(7.69929662905056e+001dB,-4.02235086243780e+001°)
3.80189396320561e+003	(7.69134688774901e+001dB,-3.96409437138178e+001°)
3.89045144994280e+003	(7.68358588142407e+001dB,-3.90625289260456e+001°)
3.98107170553497e+003	(7.67601047367764e+001dB,-3.84885006552522e+001°)
4.07380277804112e+003	(7.66861737944297e+001dB,-3.79190831807732e+001°)
4.16869383470335e+003	(7.66140317771273e+001dB,-3.73544881721883e+001°)
4.26579518801592e+003	(7.65436432472008e+001dB,-3.67949142595160e+001°)
4.36515832240165e+003	(7.64749716749977e+001dB,-3.62405466698607e+001°)
4.46683592150962e+003	(7.64079795772467e+001dB,-3.56915569326404e+001°)
4.57088189614874e+003	(7.63426286576041e+001dB,-3.51481026530240e+001°)
4.67735141287197e+003	(7.62788799483162e+001dB,-3.46103273548525e+001°)
4.78630092322637e+003	(7.62166939522474e+001dB,-3.40783603925467e+001°)
4.89778819368445e+003	(7.61560307844904e+001dB,-3.35523169312944e+001°)
5.01187233627271e+003	(7.60968503126694e+001dB,-3.30322979948689e+001°)
5.12861383991364e+003	(7.60391122952259e+001dB,-3.25183905794550e+001°)
5.24807460249772e+003	(7.59827765169591e+001dB,-3.20106678316642e+001°)
5.37031796370252e+003	(7.59278029210054e+001dB,-3.15091892889522e+001°)
5.49540873857624e+003	(7.58741517366970e+001dB,-3.10140011796204e+001°)
5.62341325190348e+003	(7.58217836025297e+001dB,-3.05251367800206e+001°)
5.75439937337156e+003	(7.57706596837665e+001dB,-3.00426168255364e+001°)
5.88843655355588e+003	(7.57207417839775e+001dB,-2.95664499724493e+001°)
6.02559586074357e+003	(7.56719924500444e+001dB,-2.90966333069430e+001°)
6.16595001861481e+003	(7.56243750702162e+001dB,-2.86331528973049e+001°)
6.30957344480192e+003	(7.55778539645827e+001dB,-2.81759843858902e+001°)
6.45654229034654e+003	(7.55323944678371e+001dB,-2.77250936159023e+001°)
6.60693448007595e+003	(7.54879630037449e+001dB,-2.72804372893231e+001°)
6.76082975391980e+003	(7.54445271511751e+001dB,-2.68419636510802e+001°)
6.91830970918935e+003	(7.54020557014180e+001dB,-2.64096131948734e+001°)
7.07945784384136e+003	(7.53605187065852e+001dB,-2.59833193859739e+001°)
7.24435960074989e+003	(7.53198875190471e+001dB,-2.55630093959369e+001°)
7.41310241300916e+003	(7.52801348216653e+001dB,-2.51486048447324e+001°)
7.58577575029182e+003	(7.52412346491478e+001dB,-2.47400225445714e+001°)
7.76247116628690e+003	(7.52031624001252e+001dB,-2.43371752415406e+001°)
7.94328234724280e+003	(7.51658948406722e+001dB,-2.39399723487865e+001°)
8.12830516164097e+003	(7.51294100987473e+001dB,-2.35483206680175e+001°)
8.31763771102669e+003	(7.50936876506046e+001dB,-2.31621250928621e+001°)
8.51138038202374e+003	(7.50587082987296e+001dB,-2.27812892911865e+001°)
8.70963589956079e+003	(7.50244541423834e+001dB,-2.24057163605763e+001°)
8.91250938133744e+003	(7.49909085405971e+001dB,-2.20353094541168e+001°)
9.12010839355908e+003	(7.49580560685933e+001dB,-2.16699723717398e+001°)
9.33254300796989e+003	(7.49258824679228e+001dB,-2.13096101142213e+001°)
9.54992586021434e+003	(7.48943745909867e+001dB,-2.09541293966249e+001°)
9.77237220955809e+003	(7.48635203406238e+001dB,-2.06034391184741e+001°)
9.99999999999998e+003	(7.48333086054158e+001dB,-2.02574507885105e+001°)
1.02329299228075e+004	(7.48037291914457e+001dB,-1.99160789022531e+001°)
1.04712854805090e+004	(7.47747727511816e+001dB,-1.95792412712199e+001°)
1.07151930523760e+004	(7.47464307102671e+001dB,-1.92468593029995e+001°)
1.09647819614318e+004	(7.47186951929580e+001dB,-1.89188582319567e+001°)
1.12201845430196e+004	(7.46915589468855e+001dB,-1.85951673009202e+001°)
1.14815362149688e+004	(7.46650152678882e+001dB,-1.82757198946015e+001°)
1.17489755493953e+004	(7.46390579257219e+001dB,-1.79604536258144e+001°)
1.20226443461741e+004	(7.46136810909226e+001dB,-1.76493103767383e+001°)
1.23026877081238e+004	(7.45888792639198e+001dB,-1.73422362966525e+001°)
1.25892541179416e+004	(7.45646472066487e+001dB,-1.70391817590830e+001°)
1.28824955169313e+004	(7.45409798772255e+001dB,-1.67401012810946e+001°)
1.31825673855640e+004	(7.45178723681303e+001dB,-1.64449534078346e+001°)
1.34896288259165e+004	(7.44953198484345e+001dB,-1.61537005654663e+001°)
1.38038426460288e+004	(7.44733175101186e+001dB,-1.58663088863379e+001°)
1.41253754462275e+004	(7.44518605190409e+001dB,-1.55827480096324e+001°)
1.44543977074592e+004	(7.44309439704452e+001dB,-1.53029908615294e+001°)
1.47910838816820e+004	(7.44105628494246e+001dB,-1.50270134182257e+001°)
1.51356124843620e+004	(7.43907119961663e+001dB,-1.47547944557377e+001°)
1.54881661891248e+004	(7.43713860761738e+001dB,-1.44863152898159e+001°)
1.58489319246111e+004	(7.43525795551991e+001dB,-1.42215595096350e+001°)
1.62181009735893e+004	(7.43342866790639e+001dB,-1.39605127082032e+001°)
1.65958690743756e+004	(7.43165014578542e+001dB,-1.37031622129288e+001°)
1.69824365246174e+004	(7.42992176546776e+001dB,-1.34494968187722e+001°)
1.73780082874937e+004	(7.42824287785354e+001dB,-1.31995065267944e+001°)
1.77827941003892e+004	(7.42661280810001e+001dB,-1.29531822904293e+001°)
1.81970085860998e+004	(7.42503085566260e+001dB,-1.27105157713562e+001°)
1.86208713666286e+004	(7.42349629465875e+001dB,-1.24714991068722e+001°)
1.90546071796324e+004	(7.42200837453741e+001dB,-1.22361246901547e+001°)
1.94984459975804e+004	(7.42056632101990e+001dB,-1.20043849646174e+001°)
1.99526231496887e+004	(7.41916933726751e+001dB,-1.17762722334021e+001°)
2.04173794466952e+004	(7.41781660526165e+001dB,-1.15517784845475e+001°)
2.08929613085403e+004	(7.41650728735840e+001dB,-1.13308952323405e+001°)
2.13796208950222e+004	(7.41524052797916e+001dB,-1.11136133751262e+001°)
2.18776162394954e+004	(7.41401545542360e+001dB,-1.08999230694919e+001°)
2.23872113856833e+004	(7.41283118375357e+001dB,-1.06898136208286e+001°)
2.29086765276777e+004	(7.41168681476191e+001dB,-1.04832733896778e+001°)
2.34422881531991e+004	(7.41058143995494e+001dB,-1.02802897137222e+001°)
2.39883291901948e+004	(7.40951414255987e+001dB,-1.00808488446094e+001°)
2.45470891568502e+004	(7.40848399952776e+001dB,-9.88493589899402e+000°)
2.51188643150957e+004	(7.40749008350439e+001dB,-9.69253482309536e+000°)
2.57039578276885e+004	(7.40653146477538e+001dB,-9.50362836979993e+000°)
2.63026799189537e+004	(7.40560721314074e+001dB,-9.31819808763913e+000°)
2.69153480392691e+004	(7.40471639974002e+001dB,-9.13622432052621e+000°)
2.75422870333816e+004	(7.40385809879279e+001dB,-8.95768621749799e+000°)
2.81838293126444e+004	(7.40303138925680e+001dB,-8.78256175147131e+000°)
2.88403150312660e+004	(7.40223535640211e+001dB,-8.61082774607497e+000°)
2.95120922666637e+004	(7.40146909327090e+001dB,-8.44245990979897e+000°)
3.01995172040200e+004	(7.40073170207555e+001dB,-8.27743287629933e+000°)
3.09029543251358e+004	(7.40002229544857e+001dB,-8.11572025044533e+000°)
3.16227766016837e+004	(7.39933999763080e+001dB,-7.95729465887642e+000°)
3.23593656929627e+004	(7.39868394553034e+001dB,-7.80212780463825e+000°)
3.31131121482590e+004	(7.39805328969778e+001dB,-7.65019052497215e+000°)
3.38844156139201e+004	(7.39744719518667e+001dB,-7.50145285174531e+000°)
3.46736850452530e+004	(7.39686484232548e+001dB,-7.35588407379393e+000°)
3.54813389233574e+004	(7.39630542739674e+001dB,-7.21345280065247e+000°)
3.63078054770100e+004	(7.39576816321376e+001dB,-7.07412702719023e+000°)
3.71535229097171e+004	(7.39525227962580e+001dB,-6.93787419859570e+000°)
3.80189396320560e+004	(7.39475702392217e+001dB,-6.80466127539636e+000°)
3.89045144994279e+004	(7.39428166117069e+001dB,-6.67445479803144e+000°)
3.98107170553496e+004	(7.39382547447563e+001dB,-6.54722095071525e+000°)
4.07380277804111e+004	(7.39338776516726e+001dB,-6.42292562426161e+000°)
4.16869383470334e+004	(7.39296785292301e+001dB,-6.30153447764684e+000°)
4.26579518801591e+004	(7.39256507583166e+001dB,-6.18301299805471e+000°)
4.36515832240164e+004	(7.39217879039794e+001dB,-6.06732655926420e+000°)
4.46683592150961e+004	(7.39180837149822e+001dB,-5.95444047818738e+000°)
4.57088189614873e+004	(7.39145321228721e+001dB,-5.84432006947374e+000°)
4.67735141287196e+004	(7.39111272405289e+001dB,-5.73693069808068e+000°)
4.78630092322636e+004	(7.39078633605632e+001dB,-5.63223782967221e+000°)
4.89778819368444e+004	(7.39047349530043e+001dB,-5.53020707893679e+000°)
5.01187233627270e+004	(7.39017366630520e+001dB,-5.43080425562136e+000°)
5.12861383991362e+004	(7.38988633081860e+001dB,-5.33399540844173e+000°)
5.24807460249770e+004	(7.38961098753169e+001dB,-5.23974686672316e+000°)
5.37031796370250e+004	(7.38934715175663e+001dB,-5.14802527988907e+000°)
5.49540873857622e+004	(7.38909435508803e+001dB,-5.05879765478645e+000°)
5.62341325190346e+004	(7.38885214505053e+001dB,-4.97203139089085e+000°)
5.75439937337154e+004	(7.38862008473095e+001dB,-4.88769431343950e+000°)
5.88843655355586e+004	(7.38839775240055e+001dB,-4.80575470455199e+000°)
6.02559586074355e+004	(7.38818474112997e+001dB,-4.72618133238445e+000°)
6.16595001861479e+004	(7.38798065838983e+001dB,-4.64894347842191e+000°)
6.30957344480190e+004	(7.38778512565704e+001dB,-4.57401096291479e+000°)
6.45654229034652e+004	(7.38759777800120e+001dB,-4.50135416861356e+000°)
6.60693448007593e+004	(7.38741826369289e+001dB,-4.43094406278205e+000°)
6.76082975391979e+004	(7.38724624378958e+001dB,-4.36275221766104e+000°)
6.91830970918933e+004	(7.38708139172932e+001dB,-4.29675082938925e+000°)
7.07945784384134e+004	(7.38692339292894e+001dB,-4.23291273549733e+000°)
7.24435960074987e+004	(7.38677194438508e+001dB,-4.17121143102710e+000°)
7.41310241300914e+004	(7.38662675426795e+001dB,-4.11162108338692e+000°)
7.58577575029180e+004	(7.38648754153809e+001dB,-4.05411654596726e+000°)
7.76247116628688e+004	(7.38635403555041e+001dB,-3.99867337064649e+000°)
7.94328234724277e+004	(7.38622597566873e+001dB,-3.94526781922520e+000°)
8.12830516164095e+004	(7.38610311089624e+001dB,-3.89387687386011e+000°)
8.31763771102667e+004	(7.38598519949315e+001dB,-3.84447824659062e+000°)
8.51138038202372e+004	(7.38587200862076e+001dB,-3.79705038799077e+000°)
8.70963589956076e+004	(7.38576331397701e+001dB,-3.75157249504479e+000°)
8.91250938133741e+004	(7.38565889944734e+001dB,-3.70802451827951e+000°)
9.12010839355905e+004	(7.38555855676425e+001dB,-3.66638716823889e+000°)
9.33254300796986e+004	(7.38546208515836e+001dB,-3.62664192133449e+000°)
9.54992586021431e+004	(7.38536929104453e+001dB,-3.58877102514571e+000°)
9.77237220955805e+004	(7.38527998768666e+001dB,-3.55275750321042e+000°)
1.00000000000000e+005	(7.38519399488802e+001dB,-3.51858515936235e+000°)
