Freq.	-V(in)/I(Rg)
1.00000000000000e+003	(8.53844049206340e+001dB,-6.85132142924809e+001°)
1.02329299228075e+003	(8.52266780862835e+001dB,-6.81323485403461e+001°)
1.04712854805090e+003	(8.50702926205252e+001dB,-6.77490319554805e+001°)
1.07151930523761e+003	(8.49152679744434e+001dB,-6.73634751847643e+001°)
1.09647819614319e+003	(8.47616222326435e+001dB,-6.69758980969168e+001°)
1.12201845430196e+003	(8.46093719979759e+001dB,-6.65865294452173e+001°)
1.14815362149688e+003	(8.44585322768183e+001dB,-6.61956064670705e+001°)
1.17489755493953e+003	(8.43091163657949e+001dB,-6.58033744184202e+001°)
1.20226443461741e+003	(8.41611357406874e+001dB,-6.54100860425671e+001°)
1.23026877081238e+003	(8.40145999484955e+001dB,-6.50160009722872e+001°)
1.25892541179417e+003	(8.38695165035789e+001dB,-6.46213850651834e+001°)
1.28824955169313e+003	(8.37258907887673e+001dB,-6.42265096732458e+001°)
1.31825673855641e+003	(8.35837259624304e+001dB,-6.38316508474850e+001°)
1.34896288259165e+003	(8.34430228725593e+001dB,-6.34370884789458e+001°)
1.38038426460288e+003	(8.33037799786982e+001dB,-6.30431053793929e+001°)
1.41253754462275e+003	(8.31659932827515e+001dB,-6.26499863042433e+001°)
1.44543977074593e+003	(8.30296562696602e+001dB,-6.22580169211505e+001°)
1.47910838816821e+003	(8.28947598587111e+001dB,-6.18674827294915e+001°)
1.51356124843621e+003	(8.27612923664168e+001dB,-6.14786679352116e+001°)
1.54881661891248e+003	(8.26292394817344e+001dB,-6.10918542868849e+001°)
1.58489319246111e+003	(8.24985842543851e+001dB,-6.07073198790074e+001°)
1.62181009735893e+003	(8.23693070968132e+001dB,-6.03253379299459e+001°)
1.65958690743756e+003	(8.22413858004289e+001dB,-5.99461755413062e+001°)
1.69824365246174e+003	(8.21147955665815e+001dB,-5.95700924465540e+001°)
1.73780082874937e+003	(8.19895090525231e+001dB,-5.91973397574516e+001°)
1.77827941003892e+003	(8.18654964327619e+001dB,-5.88281587159683e+001°)
1.81970085860998e+003	(8.17427254756916e+001dB,-5.84627794613897e+001°)
1.86208713666287e+003	(8.16211616357452e+001dB,-5.81014198203193e+001°)
1.90546071796325e+003	(8.15007681607297e+001dB,-5.77442841293870e+001°)
1.94984459975804e+003	(8.13815062142308e+001dB,-5.73915620989395e+001°)
1.99526231496888e+003	(8.12633350125950e+001dB,-5.70434277269391e+001°)
2.04173794466953e+003	(8.11462119760752e+001dB,-5.67000382712621e+001°)
2.08929613085404e+003	(8.10300928934345e+001dB,-5.63615332890913e+001°)
2.13796208950223e+003	(8.09149320993330e+001dB,-5.60280337510702e+001°)
2.18776162394955e+003	(8.08006826635417e+001dB,-5.56996412381892e+001°)
2.23872113856834e+003	(8.06872965911340e+001dB,-5.53764372280443e+001°)
2.29086765276777e+003	(8.05747250324540e+001dB,-5.50584824775238e+001°)
2.34422881531992e+003	(8.04629185018519e+001dB,-5.47458165073141e+001°)
2.39883291901949e+003	(8.03518271038382e+001dB,-5.44384571938935e+001°)
2.45470891568503e+003	(8.02414007653394e+001dB,-5.41364004735644e+001°)
2.51188643150958e+003	(8.01315894728081e+001dB,-5.38396201619192e+001°)
2.57039578276886e+003	(8.00223435125859e+001dB,-5.35480678923139e+001°)
2.63026799189538e+003	(7.99136137131813e+001dB,-5.32616731751365e+001°)
2.69153480392691e+003	(7.98053516879881e+001dB,-5.29803435791956e+001°)
2.75422870333816e+003	(7.96975100767373e+001dB,-5.27039650362351e+001°)
2.81838293126445e+003	(7.95900427843824e+001dB,-5.24324022676356e+001°)
2.88403150312660e+003	(7.94829052158882e+001dB,-5.21654993321528e+001°)
2.95120922666638e+003	(7.93760545051558e+001dB,-5.19030802932264e+001°)
3.01995172040201e+003	(7.92694497370392e+001dB,-5.16449500019741e+001°)
3.09029543251359e+003	(7.91630521606709e+001dB,-5.13908949929208e+001°)
3.16227766016838e+003	(7.90568253928608e+001dB,-5.11406844875660e+001°)
3.23593656929628e+003	(7.89507356103043e+001dB,-5.08940715004156e+001°)
3.31131121482591e+003	(7.88447517292800e+001dB,-5.06507940415681e+001°)
3.38844156139202e+003	(7.87388455716299e+001dB,-5.04105764091955e+001°)
3.46736850452531e+003	(7.86329920161346e+001dB,-5.01731305642609e+001°)
3.54813389233575e+003	(7.85271691340445e+001dB,-4.99381575799505e+001°)
3.63078054770101e+003	(7.84213583081833e+001dB,-4.97053491569548e+001°)
3.71535229097172e+003	(7.83155443347001e+001dB,-4.94743891959414e+001°)
3.80189396320561e+003	(7.82097155067797e+001dB,-4.92449554180422e+001°)
3.89045144994280e+003	(7.81038636800340e+001dB,-4.90167210234261e+001°)
3.98107170553497e+003	(7.79979843189365e+001dB,-4.87893563785068e+001°)
4.07380277804112e+003	(7.78920765241999e+001dB,-4.85625307216240e+001°)
4.16869383470335e+003	(7.77861430409371e+001dB,-4.83359138771962e+001°)
4.26579518801592e+003	(7.76801902475135e+001dB,-4.81091779684376e+001°)
4.36515832240165e+003	(7.75742281253207e+001dB,-4.78819991185374e+001°)
4.46683592150962e+003	(7.74682702097531e+001dB,-4.76540591305452e+001°)
4.57088189614874e+003	(7.73623335225734e+001dB,-4.74250471364887e+001°)
4.67735141287197e+003	(7.72564384863305e+001dB,-4.71946612063594e+001°)
4.78630092322637e+003	(7.71506088214260e+001dB,-4.69626099079622e+001°)
4.89778819368445e+003	(7.70448714262973e+001dB,-4.67286138093598e+001°)
5.01187233627271e+003	(7.69392562418970e+001dB,-4.64924069155200e+001°)
5.12861383991364e+003	(7.68337961009815e+001dB,-4.62537380319106e+001°)
5.24807460249772e+003	(7.67285265634329e+001dB,-4.60123720478391e+001°)
5.37031796370252e+003	(7.66234857384858e+001dB,-4.57680911332380e+001°)
5.49540873857624e+003	(7.65187140951213e+001dB,-4.55206958429825e+001°)
5.62341325190348e+003	(7.64142542617181e+001dB,-4.52700061236039e+001°)
5.75439937337156e+003	(7.63101508160046e+001dB,-4.50158622179503e+001°)
5.88843655355588e+003	(7.62064500670615e+001dB,-4.47581254637212e+001°)
6.02559586074357e+003	(7.61031998299378e+001dB,-4.44966789829675e+001°)
6.16595001861481e+003	(7.60004491949347e+001dB,-4.42314282597929e+001°)
6.30957344480192e+003	(7.58982482923052e+001dB,-4.39623016046370e+001°)
6.45654229034654e+003	(7.57966480540154e+001dB,-4.36892505038916e+001°)
6.60693448007595e+003	(7.56956999738724e+001dB,-4.34122498544501e+001°)
6.76082975391980e+003	(7.55954558672257e+001dB,-4.31312980834189e+001°)
6.91830970918935e+003	(7.54959676316234e+001dB,-4.28464171538750e+001°)
7.07945784384136e+003	(7.53972870098343e+001dB,-4.25576524582598e+001°)
7.24435960074989e+003	(7.52994653563362e+001dB,-4.22650726015900e+001°)
7.41310241300916e+003	(7.52025534085331e+001dB,-4.19687690773565e+001°)
7.58577575029182e+003	(7.51066010639957e+001dB,-4.16688558395834e+001°)
7.76247116628690e+003	(7.50116571648088e+001dB,-4.13654687750749e+001°)
7.94328234724280e+003	(7.49177692900360e+001dB,-4.10587650805129e+001°)
8.12830516164097e+003	(7.48249835575079e+001dB,-4.07489225495901e+001°)
8.31763771102669e+003	(7.47333444356316e+001dB,-4.04361387758491e+001°)
8.51138038202374e+003	(7.46428945663391e+001dB,-4.01206302773752e+001°)
8.70963589956079e+003	(7.45536745998885e+001dB,-3.98026315500161e+001°)
8.91250938133744e+003	(7.44657230420810e+001dB,-3.94823940560283e+001°)
9.12010839355908e+003	(7.43790761146942e+001dB,-3.91601851555270e+001°)
9.33254300796989e+003	(7.42937676296565e+001dB,-3.88362869883307e+001°)
9.54992586021434e+003	(7.42098288770486e+001dB,-3.85109953140048e+001°)
9.77237220955809e+003	(7.41272885276981e+001dB,-3.81846183181397e+001°)
9.99999999999998e+003	(7.40461725501683e+001dB,-3.78574753928476e+001°)
1.02329299228075e+004	(7.39665041424460e+001dB,-3.75298958996683e+001°)
1.04712854805090e+004	(7.38883036781931e+001dB,-3.72022179228499e+001°)
1.07151930523760e+004	(7.38115886674690e+001dB,-3.68747870209726e+001°)
1.09647819614318e+004	(7.37363737317240e+001dB,-3.65479549846587e+001°)
1.12201845430196e+004	(7.36626705925385e+001dB,-3.62220786077793e+001°)
1.14815362149688e+004	(7.35904880739707e+001dB,-3.58975184794110e+001°)
1.17489755493953e+004	(7.35198321176328e+001dB,-3.55746378032259e+001°)
1.20226443461741e+004	(7.34507058102078e+001dB,-3.52538012507089e+001°)
1.23026877081238e+004	(7.33831094224003e+001dB,-3.49353738539719e+001°)
1.25892541179416e+004	(7.33170404588695e+001dB,-3.46197199435443e+001°)
1.28824955169313e+004	(7.32524937180861e+001dB,-3.43072021358425e+001°)
1.31825673855640e+004	(7.31894613613374e+001dB,-3.39981803744283e+001°)
1.34896288259165e+004	(7.31279329900486e+001dB,-3.36930110286257e+001°)
1.38038426460288e+004	(7.30678957303442e+001dB,-3.33920460523442e+001°)
1.41253754462275e+004	(7.30093343240521e+001dB,-3.30956322054151e+001°)
1.44543977074592e+004	(7.29522312250387e+001dB,-3.28041103389918e+001°)
1.47910838816820e+004	(7.28965667001434e+001dB,-3.25178147461563e+001°)
1.51356124843620e+004	(7.28423189334859e+001dB,-3.22370725779457e+001°)
1.54881661891248e+004	(7.27894641336114e+001dB,-3.19622033249842e+001°)
1.58489319246111e+004	(7.27379766421205e+001dB,-3.16935183635826e+001°)
1.62181009735893e+004	(7.26878290433894e+001dB,-3.14313205655880e+001°)
1.65958690743756e+004	(7.26389922742589e+001dB,-3.11759039699321e+001°)
1.69824365246174e+004	(7.25914357331424e+001dB,-3.09275535141710e+001°)
1.73780082874937e+004	(7.25451273876204e+001dB,-3.06865448232475e+001°)
1.77827941003892e+004	(7.25000338801704e+001dB,-3.04531440529763e+001°)
1.81970085860998e+004	(7.24561206311079e+001dB,-3.02276077850856e+001°)
1.86208713666286e+004	(7.24133519385484e+001dB,-3.00101829706192e+001°)
1.90546071796324e+004	(7.23716910746191e+001dB,-2.98011069181495e+001°)
1.94984459975804e+004	(7.23311003776837e+001dB,-2.96006073234006e+001°)
1.99526231496887e+004	(7.22915413402536e+001dB,-2.94089023363875e+001°)
2.04173794466952e+004	(7.22529746921160e+001dB,-2.92262006624955e+001°)
2.08929613085403e+004	(7.22153604787236e+001dB,-2.90527016937472e+001°)
2.13796208950222e+004	(7.21786581343688e+001dB,-2.88885956663282e+001°)
2.18776162394954e+004	(7.21428265502204e+001dB,-2.87340638409301e+001°)
2.23872113856833e+004	(7.21078241371405e+001dB,-2.85892787022013e+001°)
2.29086765276777e+004	(7.20736088831284e+001dB,-2.84544041735760e+001°)
2.34422881531991e+004	(7.20401384054799e+001dB,-2.83295958444282e+001°)
2.39883291901948e+004	(7.20073699977664e+001dB,-2.82150012059826e+001°)
2.45470891568502e+004	(7.19752606716572e+001dB,-2.81107598930047e+001°)
2.51188643150957e+004	(7.19437671936423e+001dB,-2.80170039281217e+001°)
2.57039578276885e+004	(7.19128461170038e+001dB,-2.79338579662027e+001°)
2.63026799189537e+004	(7.18824538089919e+001dB,-2.78614395359222e+001°)
2.69153480392691e+004	(7.18525464735533e+001dB,-2.77998592761549e+001°)
2.75422870333816e+004	(7.18230801697241e+001dB,-2.77492211647511e+001°)
2.81838293126444e+004	(7.17940108260944e+001dB,-2.77096227379332e+001°)
2.88403150312660e+004	(7.17652942513614e+001dB,-2.76811552977799e+001°)
2.95120922666637e+004	(7.17368861414238e+001dB,-2.76639041065787e+001°)
3.01995172040200e+004	(7.17087420831918e+001dB,-2.76579485660054e+001°)
3.09029543251358e+004	(7.16808175555066e+001dB,-2.76633623799626e+001°)
3.16227766016837e+004	(7.16530679272874e+001dB,-2.76802136996012e+001°)
3.23593656929627e+004	(7.16254484534187e+001dB,-2.77085652495117e+001°)
3.31131121482590e+004	(7.15979142684537e+001dB,-2.77484744338391e+001°)
3.38844156139201e+004	(7.15704203786779e+001dB,-2.77999934218575e+001°)
3.46736850452530e+004	(7.15429216526596e+001dB,-2.78631692120722e+001°)
3.54813389233574e+004	(7.15153728106752e+001dB,-2.79380436741501e+001°)
3.63078054770100e+004	(7.14877284133406e+001dB,-2.80246535685762e+001°)
3.71535229097171e+004	(7.14599428497795e+001dB,-2.81230305435191e+001°)
3.80189396320560e+004	(7.14319703254826e+001dB,-2.82332011087672e+001°)
3.89045144994279e+004	(7.14037648505243e+001dB,-2.83551865868277e+001°)
3.98107170553496e+004	(7.13752802280289e+001dB,-2.84890030411022e+001°)
4.07380277804111e+004	(7.13464700435404e+001dB,-2.86346611815762e+001°)
4.16869383470334e+004	(7.13172876554747e+001dB,-2.87921662483049e+001°)
4.26579518801591e+004	(7.12876861869436e+001dB,-2.89615178732472e+001°)
4.36515832240164e+004	(7.12576185193193e+001dB,-2.91427099208584e+001°)
4.46683592150961e+004	(7.12270372878469e+001dB,-2.93357303088437e+001°)
4.57088189614873e+004	(7.11958948796092e+001dB,-2.95405608093147e+001°)
4.67735141287196e+004	(7.11641434340595e+001dB,-2.97571768319113e+001°)
4.78630092322636e+004	(7.11317348465530e+001dB,-2.99855471899487e+001°)
4.89778819368444e+004	(7.10986207750598e+001dB,-3.02256338511648e+001°)
5.01187233627270e+004	(7.10647526503782e+001dB,-3.04773916744763e+001°)
5.12861383991362e+004	(7.10300816900400e+001dB,-3.07407681344152e+001°)
5.24807460249770e+004	(7.09945589163492e+001dB,-3.10157030356344e+001°)
5.37031796370250e+004	(7.09581351784294e+001dB,-3.13021282188443e+001°)
5.49540873857622e+004	(7.09207611789491e+001dB,-3.15999672611084e+001°)
5.62341325190346e+004	(7.08823875052656e+001dB,-3.19091351723370e+001°)
5.75439937337154e+004	(7.08429646655407e+001dB,-3.22295380910734e+001°)
5.88843655355586e+004	(7.08024431296209e+001dB,-3.25610729818152e+001°)
6.02559586074355e+004	(7.07607733750954e+001dB,-3.29036273371093e+001°)
6.16595001861479e+004	(7.07179059384055e+001dB,-3.32570788872785e+001°)
6.30957344480190e+004	(7.06737914710983e+001dB,-3.36212953207730e+001°)
6.45654229034652e+004	(7.06283808012701e+001dB,-3.39961340188363e+001°)
6.60693448007593e+004	(7.05816250000740e+001dB,-3.43814418071821e+001°)
6.76082975391979e+004	(7.05334754532835e+001dB,-3.47770547286231e+001°)
6.91830970918933e+004	(7.04838839376732e+001dB,-3.51827978396749e+001°)
7.07945784384134e+004	(7.04328027021465e+001dB,-3.55984850347434e+001°)
7.24435960074987e+004	(7.03801845532751e+001dB,-3.60239189014241e+001°)
7.41310241300914e+004	(7.03259829449616e+001dB,-3.64588906098471e+001°)
7.58577575029180e+004	(7.02701520719368e+001dB,-3.69031798396176e+001°)
7.76247116628688e+004	(7.02126469666697e+001dB,-3.73565547476045e+001°)
7.94328234724277e+004	(7.01534235991147e+001dB,-3.78187719786092e+001°)
8.12830516164095e+004	(7.00924389789891e+001dB,-3.82895767233008e+001°)
8.31763771102667e+004	(7.00296512598329e+001dB,-3.87687028233759e+001°)
8.51138038202372e+004	(6.99650198443699e+001dB,-3.92558729286795e+001°)
8.70963589956076e+004	(6.98985054904176e+001dB,-3.97507987062714e+001°)
8.91250938133741e+004	(6.98300704167702e+001dB,-4.02531811029427e+001°)
9.12010839355905e+004	(6.97596784081642e+001dB,-4.07627106632777e+001°)
9.33254300796986e+004	(6.96872949188152e+001dB,-4.12790679023828e+001°)
9.54992586021431e+004	(6.96128871734608e+001dB,-4.18019237338336e+001°)
9.77237220955805e+004	(6.95364242654427e+001dB,-4.23309399525357e+001°)
1.00000000000000e+005	(6.94578772507650e+001dB,-4.28657697709262e+001°)
